rl	V(a)	V(b)	V(c)	I(Rlth)	I(Rl)
1.000000000000000e+00	4.641205e+00	4.639742e+00	1.462640e-03	1.462640e-03	1.462892e-03
1.100000000000000e+01	4.651183e+00	4.635214e+00	1.596600e-02	1.451454e-03	1.451705e-03
2.100000000000000e+01	4.661009e+00	4.630754e+00	3.024922e-02	1.440439e-03	1.440687e-03
3.100000000000000e+01	4.670687e+00	4.626362e+00	4.431727e-02	1.429589e-03	1.429836e-03
4.100000000000000e+01	4.680221e+00	4.622036e+00	5.817498e-02	1.418902e-03	1.419147e-03
5.100000000000000e+01	4.689612e+00	4.617773e+00	7.182704e-02	1.408373e-03	1.408616e-03
6.100000000000000e+01	4.698866e+00	4.613574e+00	8.527799e-02	1.398000e-03	1.398241e-03
7.100000000000000e+01	4.707985e+00	4.609436e+00	9.853223e-02	1.387778e-03	1.388017e-03
8.100000000000000e+01	4.716971e+00	4.605358e+00	1.115941e-01	1.377704e-03	1.377942e-03
9.100000000000000e+01	4.725827e+00	4.601338e+00	1.244676e-01	1.367776e-03	1.368012e-03
1.010000000000000e+02	4.734557e+00	4.597376e+00	1.371570e-01	1.357990e-03	1.358224e-03
1.110000000000000e+02	4.743163e+00	4.593471e+00	1.496660e-01	1.348343e-03	1.348575e-03
1.210000000000000e+02	4.751647e+00	4.589621e+00	1.619986e-01	1.338832e-03	1.339062e-03
1.310000000000000e+02	4.760013e+00	4.585824e+00	1.741584e-01	1.329454e-03	1.329683e-03
1.410000000000000e+02	4.768261e+00	4.582080e+00	1.861491e-01	1.320206e-03	1.320434e-03
1.510000000000000e+02	4.776397e+00	4.578389e+00	1.979741e-01	1.311087e-03	1.311313e-03
1.610000000000000e+02	4.784420e+00	4.574747e+00	2.096369e-01	1.302092e-03	1.302317e-03
1.710000000000000e+02	4.792335e+00	4.571156e+00	2.211407e-01	1.293220e-03	1.293443e-03
1.810000000000000e+02	4.800141e+00	4.567613e+00	2.324888e-01	1.284468e-03	1.284690e-03
1.910000000000000e+02	4.807844e+00	4.564117e+00	2.436844e-01	1.275834e-03	1.276054e-03
2.010000000000000e+02	4.815443e+00	4.560668e+00	2.547304e-01	1.267315e-03	1.267534e-03
2.110000000000000e+02	4.822941e+00	4.557265e+00	2.656299e-01	1.258910e-03	1.259127e-03
2.210000000000000e+02	4.830341e+00	4.553907e+00	2.763858e-01	1.250614e-03	1.250830e-03
2.310000000000000e+02	4.837644e+00	4.550593e+00	2.870009e-01	1.242428e-03	1.242642e-03
2.410000000000000e+02	4.844851e+00	4.547322e+00	2.974778e-01	1.234348e-03	1.234561e-03
2.510000000000000e+02	4.851966e+00	4.544094e+00	3.078195e-01	1.226372e-03	1.226584e-03
2.610000000000000e+02	4.858989e+00	4.540906e+00	3.180283e-01	1.218499e-03	1.218709e-03
2.710000000000000e+02	4.865923e+00	4.537759e+00	3.281069e-01	1.210726e-03	1.210935e-03
2.810000000000000e+02	4.872768e+00	4.534653e+00	3.380576e-01	1.203052e-03	1.203259e-03
2.910000000000000e+02	4.879528e+00	4.531585e+00	3.478831e-01	1.195475e-03	1.195681e-03
3.010000000000000e+02	4.886203e+00	4.528556e+00	3.575855e-01	1.187992e-03	1.188197e-03
3.110000000000000e+02	4.892795e+00	4.525564e+00	3.671673e-01	1.180602e-03	1.180806e-03
3.210000000000000e+02	4.899305e+00	4.522610e+00	3.766306e-01	1.173304e-03	1.173506e-03
3.310000000000000e+02	4.905735e+00	4.519691e+00	3.859776e-01	1.166095e-03	1.166297e-03
3.410000000000000e+02	4.912087e+00	4.516809e+00	3.952105e-01	1.158975e-03	1.159175e-03
3.510000000000000e+02	4.918362e+00	4.513961e+00	4.043312e-01	1.151941e-03	1.152139e-03
3.610000000000000e+02	4.924561e+00	4.511148e+00	4.133420e-01	1.144992e-03	1.145189e-03
3.710000000000000e+02	4.930686e+00	4.508368e+00	4.222447e-01	1.138126e-03	1.138322e-03
3.810000000000000e+02	4.936738e+00	4.505622e+00	4.310412e-01	1.131342e-03	1.131537e-03
3.910000000000000e+02	4.942718e+00	4.502908e+00	4.397335e-01	1.124638e-03	1.124832e-03
4.010000000000000e+02	4.948627e+00	4.500226e+00	4.483234e-01	1.118013e-03	1.118206e-03
4.110000000000000e+02	4.954467e+00	4.497576e+00	4.568127e-01	1.111466e-03	1.111658e-03
4.210000000000000e+02	4.960239e+00	4.494956e+00	4.652031e-01	1.104995e-03	1.105186e-03
4.310000000000000e+02	4.965945e+00	4.492367e+00	4.734964e-01	1.098600e-03	1.098789e-03
4.410000000000000e+02	4.971585e+00	4.489808e+00	4.816943e-01	1.092277e-03	1.092466e-03
4.510000000000000e+02	4.977160e+00	4.487278e+00	4.897983e-01	1.086027e-03	1.086215e-03
4.610000000000000e+02	4.982672e+00	4.484776e+00	4.978102e-01	1.079849e-03	1.080035e-03
4.710000000000000e+02	4.988122e+00	4.482303e+00	5.057313e-01	1.073739e-03	1.073925e-03
4.810000000000000e+02	4.993509e+00	4.479857e+00	5.135634e-01	1.067699e-03	1.067883e-03
4.910000000000000e+02	4.998837e+00	4.477439e+00	5.213078e-01	1.061727e-03	1.061910e-03
5.010000000000000e+02	5.004106e+00	4.475049e+00	5.289661e-01	1.055820e-03	1.056002e-03
5.110000000000000e+02	5.009316e+00	4.472684e+00	5.365396e-01	1.049980e-03	1.050161e-03
5.210000000000000e+02	5.014469e+00	4.470345e+00	5.440298e-01	1.044203e-03	1.044383e-03
5.310000000000000e+02	5.019566e+00	4.468032e+00	5.514381e-01	1.038490e-03	1.038669e-03
5.410000000000000e+02	5.024607e+00	4.465745e+00	5.587657e-01	1.032839e-03	1.033017e-03
5.510000000000000e+02	5.029593e+00	4.463482e+00	5.660140e-01	1.027249e-03	1.027426e-03
5.610000000000000e+02	5.034526e+00	4.461243e+00	5.731843e-01	1.021719e-03	1.021895e-03
5.710000000000000e+02	5.039406e+00	4.459029e+00	5.802777e-01	1.016248e-03	1.016423e-03
5.810000000000000e+02	5.044234e+00	4.456837e+00	5.872957e-01	1.010836e-03	1.011010e-03
5.910000000000000e+02	5.049011e+00	4.454669e+00	5.942392e-01	1.005481e-03	1.005654e-03
6.010000000000000e+02	5.053738e+00	4.452525e+00	6.011096e-01	1.000182e-03	1.000355e-03
6.110000000000000e+02	5.058414e+00	4.450402e+00	6.079080e-01	9.949394e-04	9.951108e-04
6.210000000000000e+02	5.063043e+00	4.448302e+00	6.146354e-01	9.897511e-04	9.899216e-04
6.310000000000000e+02	5.067623e+00	4.446223e+00	6.212930e-01	9.846166e-04	9.847862e-04
6.410000000000000e+02	5.072156e+00	4.444166e+00	6.278819e-01	9.795350e-04	9.797039e-04
6.510000000000000e+02	5.076643e+00	4.442130e+00	6.344032e-01	9.745057e-04	9.746737e-04
6.610000000000000e+02	5.081083e+00	4.440114e+00	6.408579e-01	9.695278e-04	9.696949e-04
6.710000000000000e+02	5.085478e+00	4.438120e+00	6.472469e-01	9.646005e-04	9.647667e-04
6.810000000000000e+02	5.089829e+00	4.436145e+00	6.535714e-01	9.597230e-04	9.598884e-04
6.910000000000000e+02	5.094136e+00	4.434191e+00	6.598321e-01	9.548946e-04	9.550591e-04
7.010000000000000e+02	5.098401e+00	4.432255e+00	6.660302e-01	9.501145e-04	9.502782e-04
7.110000000000000e+02	5.102622e+00	4.430340e+00	6.721666e-01	9.453820e-04	9.455449e-04
7.210000000000000e+02	5.106802e+00	4.428443e+00	6.782421e-01	9.406965e-04	9.408586e-04
7.310000000000000e+02	5.110940e+00	4.426565e+00	6.842577e-01	9.360571e-04	9.362185e-04
7.410000000000000e+02	5.115038e+00	4.424705e+00	6.902143e-01	9.314633e-04	9.316239e-04
7.510000000000000e+02	5.119096e+00	4.422863e+00	6.961128e-01	9.269144e-04	9.270742e-04
7.610000000000000e+02	5.123115e+00	4.421040e+00	7.019538e-01	9.224097e-04	9.225687e-04
7.710000000000000e+02	5.127094e+00	4.419234e+00	7.077383e-01	9.179485e-04	9.181068e-04
7.810000000000000e+02	5.131035e+00	4.417445e+00	7.134672e-01	9.135304e-04	9.136878e-04
7.910000000000000e+02	5.134939e+00	4.415674e+00	7.191412e-01	9.091545e-04	9.093112e-04
8.010000000000000e+02	5.138805e+00	4.413919e+00	7.247611e-01	9.048203e-04	9.049763e-04
8.110000000000000e+02	5.142634e+00	4.412181e+00	7.303277e-01	9.005273e-04	9.006825e-04
8.210000000000000e+02	5.146428e+00	4.410460e+00	7.358416e-01	8.962749e-04	8.964293e-04
8.310000000000000e+02	5.150186e+00	4.408754e+00	7.413038e-01	8.920623e-04	8.922160e-04
8.410000000000000e+02	5.153908e+00	4.407065e+00	7.467148e-01	8.878892e-04	8.880423e-04
8.510000000000000e+02	5.157596e+00	4.405391e+00	7.520755e-01	8.837550e-04	8.839073e-04
8.610000000000000e+02	5.161250e+00	4.403733e+00	7.573865e-01	8.796591e-04	8.798107e-04
8.710000000000000e+02	5.164870e+00	4.402090e+00	7.626485e-01	8.756010e-04	8.757519e-04
8.810000000000000e+02	5.168457e+00	4.400462e+00	7.678621e-01	8.715802e-04	8.717303e-04
8.910000000000000e+02	5.172011e+00	4.398849e+00	7.730281e-01	8.675961e-04	8.677455e-04
9.010000000000000e+02	5.175532e+00	4.397251e+00	7.781470e-01	8.636483e-04	8.637971e-04
9.110000000000000e+02	5.179022e+00	4.395668e+00	7.832196e-01	8.597362e-04	8.598843e-04
9.210000000000000e+02	5.182480e+00	4.394098e+00	7.882465e-01	8.558594e-04	8.560069e-04
9.310000000000000e+02	5.185907e+00	4.392543e+00	7.932282e-01	8.520174e-04	8.521642e-04
9.410000000000000e+02	5.189304e+00	4.391001e+00	7.981654e-01	8.482098e-04	8.483559e-04
9.510000000000000e+02	5.192670e+00	4.389473e+00	8.030587e-01	8.444360e-04	8.445815e-04
9.610000000000000e+02	5.196007e+00	4.387959e+00	8.079085e-01	8.406957e-04	8.408406e-04
9.710000000000000e+02	5.199314e+00	4.386458e+00	8.127157e-01	8.369884e-04	8.371326e-04
9.810000000000000e+02	5.202592e+00	4.384971e+00	8.174806e-01	8.333136e-04	8.334572e-04
9.910000000000000e+02	5.205842e+00	4.383496e+00	8.222039e-01	8.296709e-04	8.298139e-04
1.001000000000000e+03	5.209063e+00	4.382034e+00	8.268861e-01	8.260600e-04	8.262023e-04
1.011000000000000e+03	5.212256e+00	4.380585e+00	8.315276e-01	8.224803e-04	8.226220e-04
1.021000000000000e+03	5.215422e+00	4.379148e+00	8.361291e-01	8.189316e-04	8.190727e-04
1.031000000000000e+03	5.218560e+00	4.377724e+00	8.406911e-01	8.154133e-04	8.155538e-04
1.041000000000000e+03	5.221672e+00	4.376312e+00	8.452141e-01	8.119251e-04	8.120650e-04
1.051000000000000e+03	5.224757e+00	4.374912e+00	8.496985e-01	8.084667e-04	8.086060e-04
1.061000000000000e+03	5.227816e+00	4.373524e+00	8.541448e-01	8.050376e-04	8.051763e-04
1.071000000000000e+03	5.230849e+00	4.372147e+00	8.585536e-01	8.016374e-04	8.017755e-04
1.081000000000000e+03	5.233856e+00	4.370782e+00	8.629254e-01	7.982659e-04	7.984034e-04
1.091000000000000e+03	5.236839e+00	4.369429e+00	8.672605e-01	7.949225e-04	7.950595e-04
1.101000000000000e+03	5.239796e+00	4.368087e+00	8.715594e-01	7.916071e-04	7.917435e-04
1.111000000000000e+03	5.242729e+00	4.366755e+00	8.758227e-01	7.883193e-04	7.884551e-04
1.121000000000000e+03	5.245638e+00	4.365436e+00	8.800507e-01	7.850586e-04	7.851939e-04
1.131000000000000e+03	5.248523e+00	4.364127e+00	8.842438e-01	7.818248e-04	7.819595e-04
1.141000000000000e+03	5.251384e+00	4.362828e+00	8.884025e-01	7.786175e-04	7.787516e-04
1.151000000000000e+03	5.254221e+00	4.361540e+00	8.925273e-01	7.754364e-04	7.755700e-04
1.161000000000000e+03	5.257036e+00	4.360263e+00	8.966185e-01	7.722812e-04	7.724143e-04
1.171000000000000e+03	5.259828e+00	4.358996e+00	9.006765e-01	7.691516e-04	7.692841e-04
1.181000000000000e+03	5.262597e+00	4.357739e+00	9.047018e-01	7.660472e-04	7.661792e-04
1.191000000000000e+03	5.265344e+00	4.356493e+00	9.086947e-01	7.629679e-04	7.630993e-04
1.201000000000000e+03	5.268069e+00	4.355256e+00	9.126557e-01	7.599131e-04	7.600440e-04
1.211000000000000e+03	5.270772e+00	4.354029e+00	9.165850e-01	7.568827e-04	7.570132e-04
1.221000000000000e+03	5.273454e+00	4.352812e+00	9.204831e-01	7.538764e-04	7.540063e-04
1.231000000000000e+03	5.276114e+00	4.351604e+00	9.243504e-01	7.508939e-04	7.510233e-04
1.241000000000000e+03	5.278754e+00	4.350407e+00	9.281872e-01	7.479349e-04	7.480638e-04
1.251000000000000e+03	5.281373e+00	4.349218e+00	9.319939e-01	7.449992e-04	7.451275e-04
1.261000000000000e+03	5.283971e+00	4.348039e+00	9.357708e-01	7.420863e-04	7.422141e-04
1.271000000000000e+03	5.286549e+00	4.346869e+00	9.395183e-01	7.391961e-04	7.393236e-04
1.281000000000000e+03	5.289107e+00	4.345708e+00	9.432368e-01	7.363285e-04	7.364553e-04
1.291000000000000e+03	5.291646e+00	4.344556e+00	9.469264e-01	7.334829e-04	7.336093e-04
1.301000000000000e+03	5.294165e+00	4.343413e+00	9.505877e-01	7.306593e-04	7.307852e-04
1.311000000000000e+03	5.296664e+00	4.342279e+00	9.542209e-01	7.278573e-04	7.279827e-04
1.321000000000000e+03	5.299144e+00	4.341153e+00	9.578264e-01	7.250767e-04	7.252017e-04
1.331000000000000e+03	5.301606e+00	4.340036e+00	9.614044e-01	7.223173e-04	7.224418e-04
1.341000000000000e+03	5.304049e+00	4.338927e+00	9.649552e-01	7.195788e-04	7.197028e-04
1.351000000000000e+03	5.306473e+00	4.337827e+00	9.684793e-01	7.168610e-04	7.169846e-04
1.361000000000000e+03	5.308879e+00	4.336735e+00	9.719768e-01	7.141637e-04	7.142868e-04
1.371000000000000e+03	5.311267e+00	4.335651e+00	9.754481e-01	7.114866e-04	7.116091e-04
1.381000000000000e+03	5.313638e+00	4.334576e+00	9.788935e-01	7.088294e-04	7.089516e-04
1.391000000000000e+03	5.315990e+00	4.333508e+00	9.823132e-01	7.061921e-04	7.063138e-04
1.401000000000000e+03	5.318326e+00	4.332448e+00	9.857076e-01	7.035743e-04	7.036955e-04
1.411000000000000e+03	5.320643e+00	4.331396e+00	9.890769e-01	7.009758e-04	7.010966e-04
1.421000000000000e+03	5.322945e+00	4.330352e+00	9.924214e-01	6.983965e-04	6.985168e-04
1.431000000000000e+03	5.325229e+00	4.329316e+00	9.957414e-01	6.958360e-04	6.959559e-04
1.441000000000000e+03	5.327496e+00	4.328287e+00	9.990371e-01	6.932943e-04	6.934138e-04
1.451000000000000e+03	5.329747e+00	4.327265e+00	1.002309e+00	6.907711e-04	6.908901e-04
1.461000000000000e+03	5.331981e+00	4.326251e+00	1.005557e+00	6.882662e-04	6.883848e-04
1.471000000000000e+03	5.334199e+00	4.325244e+00	1.008781e+00	6.857794e-04	6.858975e-04
1.481000000000000e+03	5.336402e+00	4.324245e+00	1.011983e+00	6.833104e-04	6.834282e-04
1.491000000000000e+03	5.338588e+00	4.323252e+00	1.015161e+00	6.808593e-04	6.809765e-04
1.501000000000000e+03	5.340759e+00	4.322267e+00	1.018317e+00	6.784255e-04	6.785425e-04
1.511000000000000e+03	5.342915e+00	4.321289e+00	1.021450e+00	6.760092e-04	6.761257e-04
1.521000000000000e+03	5.345055e+00	4.320318e+00	1.024561e+00	6.736100e-04	6.737261e-04
1.531000000000000e+03	5.347180e+00	4.319353e+00	1.027650e+00	6.712278e-04	6.713435e-04
1.541000000000000e+03	5.349290e+00	4.318396e+00	1.030717e+00	6.688624e-04	6.689776e-04
1.551000000000000e+03	5.351386e+00	4.317445e+00	1.033763e+00	6.665136e-04	6.666284e-04
1.561000000000000e+03	5.353466e+00	4.316501e+00	1.036787e+00	6.641812e-04	6.642956e-04
1.571000000000000e+03	5.355532e+00	4.315563e+00	1.039790e+00	6.618651e-04	6.619791e-04
1.581000000000000e+03	5.357584e+00	4.314632e+00	1.042772e+00	6.595650e-04	6.596787e-04
1.591000000000000e+03	5.359622e+00	4.313707e+00	1.045734e+00	6.572810e-04	6.573942e-04
1.601000000000000e+03	5.361645e+00	4.312789e+00	1.048675e+00	6.550126e-04	6.551255e-04
1.611000000000000e+03	5.363654e+00	4.311877e+00	1.051596e+00	6.527599e-04	6.528724e-04
1.621000000000000e+03	5.365650e+00	4.310971e+00	1.054497e+00	6.505226e-04	6.506348e-04
1.631000000000000e+03	5.367632e+00	4.310071e+00	1.057378e+00	6.483006e-04	6.484123e-04
1.641000000000000e+03	5.369601e+00	4.309178e+00	1.060240e+00	6.460938e-04	6.462051e-04
1.651000000000000e+03	5.371556e+00	4.308291e+00	1.063082e+00	6.439019e-04	6.440128e-04
1.661000000000000e+03	5.373498e+00	4.307410e+00	1.065905e+00	6.417249e-04	6.418354e-04
1.671000000000000e+03	5.375427e+00	4.306534e+00	1.068709e+00	6.395624e-04	6.396726e-04
1.681000000000000e+03	5.377343e+00	4.305665e+00	1.071494e+00	6.374146e-04	6.375244e-04
1.691000000000000e+03	5.379246e+00	4.304801e+00	1.074260e+00	6.352811e-04	6.353905e-04
1.701000000000000e+03	5.381137e+00	4.303943e+00	1.077008e+00	6.331618e-04	6.332709e-04
1.711000000000000e+03	5.383015e+00	4.303091e+00	1.079738e+00	6.310566e-04	6.311653e-04
1.721000000000000e+03	5.384880e+00	4.302244e+00	1.082449e+00	6.289654e-04	6.290738e-04
1.731000000000000e+03	5.386733e+00	4.301403e+00	1.085143e+00	6.268880e-04	6.269960e-04
1.741000000000000e+03	5.388574e+00	4.300568e+00	1.087819e+00	6.248243e-04	6.249319e-04
1.751000000000000e+03	5.390403e+00	4.299738e+00	1.090477e+00	6.227741e-04	6.228814e-04
1.761000000000000e+03	5.392220e+00	4.298913e+00	1.093118e+00	6.207373e-04	6.208443e-04
1.771000000000000e+03	5.394025e+00	4.298094e+00	1.095742e+00	6.187138e-04	6.188204e-04
1.781000000000000e+03	5.395818e+00	4.297280e+00	1.098349e+00	6.167035e-04	6.168098e-04
1.791000000000000e+03	5.397600e+00	4.296472e+00	1.100939e+00	6.147062e-04	6.148121e-04
1.801000000000000e+03	5.399370e+00	4.295668e+00	1.103512e+00	6.127218e-04	6.128273e-04
1.811000000000000e+03	5.401129e+00	4.294870e+00	1.106068e+00	6.107501e-04	6.108553e-04
1.821000000000000e+03	5.402876e+00	4.294077e+00	1.108609e+00	6.087911e-04	6.088960e-04
1.831000000000000e+03	5.404613e+00	4.293289e+00	1.111133e+00	6.068446e-04	6.069492e-04
1.841000000000000e+03	5.406338e+00	4.292506e+00	1.113640e+00	6.049105e-04	6.050148e-04
1.851000000000000e+03	5.408052e+00	4.291728e+00	1.116132e+00	6.029888e-04	6.030927e-04
1.861000000000000e+03	5.409756e+00	4.290955e+00	1.118608e+00	6.010791e-04	6.011827e-04
1.871000000000000e+03	5.411448e+00	4.290187e+00	1.121069e+00	5.991816e-04	5.992848e-04
1.881000000000000e+03	5.413131e+00	4.289423e+00	1.123514e+00	5.972960e-04	5.973989e-04
1.891000000000000e+03	5.414802e+00	4.288665e+00	1.125943e+00	5.954222e-04	5.955248e-04
1.901000000000000e+03	5.416463e+00	4.287911e+00	1.128358e+00	5.935602e-04	5.936624e-04
1.911000000000000e+03	5.418114e+00	4.287162e+00	1.130757e+00	5.917097e-04	5.918117e-04
1.921000000000000e+03	5.419755e+00	4.286417e+00	1.133142e+00	5.898707e-04	5.899724e-04
1.931000000000000e+03	5.421385e+00	4.285677e+00	1.135511e+00	5.880432e-04	5.881445e-04
1.941000000000000e+03	5.423005e+00	4.284942e+00	1.137866e+00	5.862269e-04	5.863279e-04
1.951000000000000e+03	5.424615e+00	4.284212e+00	1.140207e+00	5.844219e-04	5.845226e-04
1.961000000000000e+03	5.426215e+00	4.283485e+00	1.142533e+00	5.826279e-04	5.827282e-04
1.971000000000000e+03	5.427806e+00	4.282763e+00	1.144845e+00	5.808449e-04	5.809449e-04
1.981000000000000e+03	5.429387e+00	4.282046e+00	1.147143e+00	5.790727e-04	5.791725e-04
1.991000000000000e+03	5.430958e+00	4.281333e+00	1.149427e+00	5.773114e-04	5.774108e-04
2.001000000000000e+03	5.432519e+00	4.280624e+00	1.151697e+00	5.755607e-04	5.756599e-04
2.011000000000000e+03	5.434072e+00	4.279920e+00	1.153953e+00	5.738206e-04	5.739194e-04
2.021000000000000e+03	5.435615e+00	4.279220e+00	1.156196e+00	5.720910e-04	5.721896e-04
2.031000000000000e+03	5.437148e+00	4.278523e+00	1.158425e+00	5.703718e-04	5.704701e-04
2.041000000000000e+03	5.438673e+00	4.277832e+00	1.160641e+00	5.686629e-04	5.687609e-04
2.051000000000000e+03	5.440188e+00	4.277144e+00	1.162844e+00	5.669642e-04	5.670619e-04
2.061000000000000e+03	5.441694e+00	4.276461e+00	1.165033e+00	5.652756e-04	5.653730e-04
2.071000000000000e+03	5.443192e+00	4.275781e+00	1.167210e+00	5.635971e-04	5.636942e-04
2.081000000000000e+03	5.444680e+00	4.275105e+00	1.169373e+00	5.619285e-04	5.620253e-04
2.091000000000000e+03	5.446160e+00	4.274434e+00	1.171524e+00	5.602697e-04	5.603663e-04
2.101000000000000e+03	5.447631e+00	4.273767e+00	1.173662e+00	5.586207e-04	5.587170e-04
2.111000000000000e+03	5.449093e+00	4.273103e+00	1.175788e+00	5.569814e-04	5.570774e-04
2.121000000000000e+03	5.450547e+00	4.272443e+00	1.177901e+00	5.553517e-04	5.554474e-04
2.131000000000000e+03	5.451992e+00	4.271787e+00	1.180002e+00	5.537315e-04	5.538269e-04
2.141000000000000e+03	5.453429e+00	4.271135e+00	1.182090e+00	5.521207e-04	5.522158e-04
2.151000000000000e+03	5.454858e+00	4.270487e+00	1.184167e+00	5.505193e-04	5.506141e-04
2.161000000000000e+03	5.456278e+00	4.269842e+00	1.186231e+00	5.489271e-04	5.490217e-04
2.171000000000000e+03	5.457690e+00	4.269201e+00	1.188284e+00	5.473441e-04	5.474384e-04
2.181000000000000e+03	5.459094e+00	4.268564e+00	1.190325e+00	5.457702e-04	5.458642e-04
2.191000000000000e+03	5.460490e+00	4.267931e+00	1.192354e+00	5.442054e-04	5.442991e-04
2.201000000000000e+03	5.461878e+00	4.267301e+00	1.194371e+00	5.426494e-04	5.427430e-04
2.211000000000000e+03	5.463258e+00	4.266675e+00	1.196377e+00	5.411024e-04	5.411956e-04
2.221000000000000e+03	5.464630e+00	4.266052e+00	1.198372e+00	5.395642e-04	5.396571e-04
2.231000000000000e+03	5.465994e+00	4.265432e+00	1.200355e+00	5.380346e-04	5.381273e-04
2.241000000000000e+03	5.467351e+00	4.264817e+00	1.202327e+00	5.365137e-04	5.366062e-04
2.251000000000000e+03	5.468700e+00	4.264205e+00	1.204288e+00	5.350015e-04	5.350936e-04
2.261000000000000e+03	5.470042e+00	4.263596e+00	1.206238e+00	5.334977e-04	5.335896e-04
2.271000000000000e+03	5.471375e+00	4.262990e+00	1.208177e+00	5.320022e-04	5.320939e-04
2.281000000000000e+03	5.472702e+00	4.262388e+00	1.210105e+00	5.305153e-04	5.306067e-04
